T24D4 000:003.793   SEGGER J-Link V7.62b Log File
T24D4 000:003.899   DLL Compiled: Mar  8 2022 15:11:05
T24D4 000:003.906   Logging started @ 2022-06-01 07:28
T24D4 000:003.913 - 3.916ms
T24D4 000:003.925 JLINK_SetWarnOutHandler(...)
T24D4 000:003.934 - 0.011ms
T24D4 000:003.941 JLINK_OpenEx(...)
T24D4 000:007.899   Firmware: J-Link V9 compiled May  7 2021 16:26:12
T24D4 000:008.345   Firmware: J-Link V9 compiled May  7 2021 16:26:12
T24D4 000:008.512   Decompressing FW timestamp took 125 us
T24D4 000:015.103   Hardware: V9.40
T24D4 000:015.130   S/N: 59408974
T24D4 000:015.140   OEM: SEGGER
T24D4 000:015.150   Feature(s): RDI, GDB, FlashDL, FlashBP, JFlash
T24D4 000:019.184   TELNET listener socket opened on port 19021
T24D4 000:019.295   WEBSRV WEBSRV_Init(): Starting webserver thread(s)
T24D4 000:019.354   WEBSRV Failed to put socket into listener state (port 19080)
T24D4 000:019.425   WEBSRV Webserver running on local port 19081
T24D4 000:022.444 - 18.516ms returns "O.K."
T24D4 000:022.516 JLINK_GetEmuCaps()
T24D4 000:022.525 - 0.012ms returns 0xB9FF7BBF
T24D4 000:022.536 JLINK_TIF_GetAvailable(...)
T24D4 000:023.184 - 0.654ms
T24D4 000:023.210 JLINK_SetErrorOutHandler(...)
T24D4 000:023.218 - 0.011ms
T24D4 000:023.244 JLINK_ExecCommand("ProjectFile = "E:\Work\ST lora\st_lora-moko\Projects\JLinkSettings.ini"", ...). 
T24D4 000:032.159   Ref file found at: D:\Software\Keil_v5\ARM\Segger\JLinkDevices.ref
T24D4 000:032.213   XML referenced by ref file: D:\Tools\SEGGER\JLinkDevices.xml
T24D4 000:032.768   D:\Tools\SEGGER\JLinkDevices.xml evaluated successfully.
T24D4 000:040.369 - 17.136ms returns 0x00
T24D4 000:041.379 JLINK_ExecCommand("Device = STM32L151CBTx", ...). 
T24D4 000:042.408   Device "STM32L151CB" selected.
T24D4 000:042.711 - 1.322ms returns 0x00
T24D4 000:042.723 JLINK_ExecCommand("DisableConnectionTimeout", ...). 
T24D4 000:042.733 - 0.004ms returns 0x01
T24D4 000:042.741 JLINK_GetHardwareVersion()
T24D4 000:042.748 - 0.010ms returns 94000
T24D4 000:042.761 JLINK_GetDLLVersion()
T24D4 000:042.768 - 0.010ms returns 76202
T24D4 000:042.776 JLINK_GetOEMString(...)
T24D4 000:042.785 JLINK_GetFirmwareString(...)
T24D4 000:042.791 - 0.010ms
T24D4 000:049.341 JLINK_GetDLLVersion()
T24D4 000:049.374 - 0.036ms returns 76202
T24D4 000:049.395 JLINK_GetCompileDateTime()
T24D4 000:049.406 - 0.015ms
T24D4 000:051.585 JLINK_GetFirmwareString(...)
T24D4 000:051.601 - 0.019ms
T24D4 000:053.503 JLINK_GetHardwareVersion()
T24D4 000:053.518 - 0.018ms returns 94000
T24D4 000:055.415 JLINK_GetSN()
T24D4 000:055.432 - 0.020ms returns 59408974
T24D4 000:057.494 JLINK_GetOEMString(...)
T24D4 000:061.417 JLINK_TIF_Select(JLINKARM_TIF_SWD)
T24D4 000:063.086 - 1.679ms returns 0x00
T24D4 000:063.121 JLINK_HasError()
T24D4 000:063.142 JLINK_SetSpeed(10000)
T24D4 000:063.773 - 0.639ms
T24D4 000:063.809 JLINK_GetId()
T24D4 000:069.495   InitTarget() start
T24D4 000:069.532    J-Link Script File: Executing InitTarget()
T24D4 000:077.040   InitTarget() end
T24D4 000:079.562   Found SW-DP with ID 0x2BA01477
T24D4 000:083.576   DPIDR: 0x2BA01477
T24D4 000:085.463   CoreSight SoC-400 or earlier
T24D4 000:087.407   Scanning AP map to find all available APs
T24D4 000:089.834   AP[1]: Stopped AP scan as end of AP map has been reached
T24D4 000:091.921   AP[0]: AHB-AP (IDR: 0x24770011)
T24D4 000:093.936   Iterating through AP map to find AHB-AP to use
T24D4 000:096.596   AP[0]: Core found
T24D4 000:101.406   AP[0]: AHB-AP ROM base: 0xE00FF000
T24D4 000:103.914   CPUID register: 0x412FC230. Implementer code: 0x41 (ARM)
T24D4 000:105.841   Found Cortex-M3 r2p0, Little endian.
T24D4 000:206.693   -- Max. mem block: 0x0000D548
T24D4 000:208.684   CPU_ReadMem(4 bytes @ 0xE000EDF0)
T24D4 000:208.952   CPU_ReadMem(4 bytes @ 0xE0002000)
T24D4 000:211.338   FPUnit: 6 code (BP) slots and 2 literal slots
T24D4 000:211.360   CPU_ReadMem(4 bytes @ 0xE000EDFC)
T24D4 000:211.593   CPU_ReadMem(4 bytes @ 0xE0001000)
T24D4 000:211.801   CPU_WriteMem(4 bytes @ 0xE0001000)
T24D4 000:212.025   CPU_ReadMem(4 bytes @ 0xE000ED88)
T24D4 000:212.289   CPU_WriteMem(4 bytes @ 0xE000ED88)
T24D4 000:212.503   CPU_ReadMem(4 bytes @ 0xE000ED88)
T24D4 000:212.723   CPU_WriteMem(4 bytes @ 0xE000ED88)
T24D4 000:215.007   CoreSight components:
T24D4 000:217.117   ROMTbl[0] @ E00FF000
T24D4 000:217.148   CPU_ReadMem(64 bytes @ 0xE00FF000)
T24D4 000:217.747   CPU_ReadMem(32 bytes @ 0xE000EFE0)
T24D4 000:220.061   [0][0]: E000E000 CID B105E00D PID 002BB000 SCS
T24D4 000:220.081   CPU_ReadMem(32 bytes @ 0xE0001FE0)
T24D4 000:222.452   [0][1]: E0001000 CID B105E00D PID 002BB002 DWT
T24D4 000:222.481   CPU_ReadMem(32 bytes @ 0xE0002FE0)
T24D4 000:224.994   [0][2]: E0002000 CID B105E00D PID 002BB003 FPB
T24D4 000:225.034   CPU_ReadMem(32 bytes @ 0xE0000FE0)
T24D4 000:227.637   [0][3]: E0000000 CID B105E00D PID 002BB001 ITM
T24D4 000:227.670   CPU_ReadMem(32 bytes @ 0xE0040FE0)
T24D4 000:230.114   [0][4]: E0040000 CID B105900D PID 002BB923 TPIU-Lite
T24D4 000:230.139   CPU_ReadMem(32 bytes @ 0xE0041FE0)
T24D4 000:232.527   [0][5]: E0041000 CID B105900D PID 002BB924 ETM-M3
T24D4 000:232.836 - 169.039ms returns 0x2BA01477
T24D4 000:232.881 JLINK_GetDLLVersion()
T24D4 000:232.890 - 0.012ms returns 76202
T24D4 000:232.898 JLINK_CORE_GetFound()
T24D4 000:232.906 - 0.010ms returns 0x30000FF
T24D4 000:232.915 JLINK_GetDebugInfo(0x100 = JLINKARM_ROM_TABLE_ADDR_INDEX)
T24D4 000:232.923   Value=0xE00FF000
T24D4 000:232.932 - 0.021ms returns 0
T24D4 000:235.133 JLINK_GetDebugInfo(0x100 = JLINKARM_ROM_TABLE_ADDR_INDEX)
T24D4 000:235.158   Value=0xE00FF000
T24D4 000:235.168 - 0.038ms returns 0
T24D4 000:235.176 JLINK_GetDebugInfo(0x101 = JLINKARM_DEBUG_INFO_ETM_ADDR_INDEX)
T24D4 000:235.183   Value=0xE0041000
T24D4 000:235.192 - 0.019ms returns 0
T24D4 000:235.211 JLINK_ReadMemEx(0xE0041FD0, 0x20 Bytes, Flags = 0x02000004)
T24D4 000:235.239   CPU_ReadMem(32 bytes @ 0xE0041FD0)
T24D4 000:235.868   Data:  04 00 00 00 00 00 00 00 00 00 00 00 00 00 00 00 ...
T24D4 000:235.885 - 0.677ms returns 32 (0x20)
T24D4 000:235.916 JLINK_GetDebugInfo(0x102 = JLINKARM_DEBUG_INFO_MTB_ADDR_INDEX)
T24D4 000:235.925   Value=0x00000000
T24D4 000:235.935 - 0.021ms returns 0
T24D4 000:235.942 JLINK_GetDebugInfo(0x103 = JLINKARM_DEBUG_INFO_TPIU_ADDR_INDEX)
T24D4 000:235.949   Value=0xE0040000
T24D4 000:235.960 - 0.021ms returns 0
T24D4 000:235.968 JLINK_GetDebugInfo(0x104 = JLINKARM_DEBUG_INFO_ITM_ADDR_INDEX)
T24D4 000:235.975   Value=0xE0000000
T24D4 000:235.984 - 0.019ms returns 0
T24D4 000:235.991 JLINK_GetDebugInfo(0x105 = JLINKARM_DEBUG_INFO_DWT_ADDR_INDEX)
T24D4 000:235.998   Value=0xE0001000
T24D4 000:236.008 - 0.019ms returns 0
T24D4 000:236.015 JLINK_GetDebugInfo(0x106 = JLINKARM_DEBUG_INFO_FPB_ADDR_INDEX)
T24D4 000:236.021   Value=0xE0002000
T24D4 000:236.031 - 0.019ms returns 0
T24D4 000:236.038 JLINK_GetDebugInfo(0x107 = JLINKARM_DEBUG_INFO_NVIC_ADDR_INDEX)
T24D4 000:236.045   Value=0xE000E000
T24D4 000:236.055 - 0.019ms returns 0
T24D4 000:236.062 JLINK_GetDebugInfo(0x10C = JLINKARM_DEBUG_INFO_DBG_ADDR_INDEX)
T24D4 000:236.069   Value=0xE000EDF0
T24D4 000:236.078 - 0.019ms returns 0
T24D4 000:236.085 JLINK_GetDebugInfo(0x01 = Unknown)
T24D4 000:236.092   Value=0x00000000
T24D4 000:236.101 - 0.019ms returns 0
T24D4 000:236.108 JLINK_ReadMemU32(0xE000ED00, 0x1 Items)
T24D4 000:236.120   CPU_ReadMem(4 bytes @ 0xE000ED00)
T24D4 000:236.461   Data:  30 C2 2F 41
T24D4 000:236.477   Debug reg: CPUID
T24D4 000:236.487 - 0.381ms returns 1 (0x1)
T24D4 000:236.516 JLINK_GetDebugInfo(0x10F = JLINKARM_DEBUG_INFO_HAS_CORTEX_M_SECURITY_EXT_INDEX)
T24D4 000:236.525   Value=0x00000000
T24D4 000:236.535 - 0.021ms returns 0
T24D4 000:236.542 JLINK_HasError()
T24D4 000:236.551 JLINK_SetResetType(JLINKARM_CM3_RESET_TYPE_NORMAL)
T24D4 000:236.558 - 0.010ms returns JLINKARM_CM3_RESET_TYPE_NORMAL
T24D4 000:236.565 JLINK_Reset()
T24D4 000:237.211   CPU is running
T24D4 000:237.229   CPU_WriteMem(4 bytes @ 0xE000EDF0)
T24D4 000:237.506   CPU is running
T24D4 000:237.523   CPU_WriteMem(4 bytes @ 0xE000EDFC)
T24D4 000:240.619   Reset: Halt core after reset via DEMCR.VC_CORERESET.
T24D4 000:243.316   Reset: Reset device via AIRCR.SYSRESETREQ.
T24D4 000:243.348   CPU is running
T24D4 000:243.362   CPU_WriteMem(4 bytes @ 0xE000ED0C)
T24D4 000:296.413   CPU_ReadMem(4 bytes @ 0xE000EDF0)
T24D4 000:296.712   CPU_ReadMem(4 bytes @ 0xE000EDF0)
T24D4 000:296.952   CPU is running
T24D4 000:296.966   CPU_WriteMem(4 bytes @ 0xE000EDF0)
T24D4 000:297.208   CPU is running
T24D4 000:297.220   CPU_WriteMem(4 bytes @ 0xE000EDFC)
T24D4 000:302.978   CPU_ReadMem(4 bytes @ 0xE000EDF0)
T24D4 000:305.199   CPU_WriteMem(4 bytes @ 0xE0002000)
T24D4 000:305.482   CPU_ReadMem(4 bytes @ 0xE000EDFC)
T24D4 000:305.801   CPU_ReadMem(4 bytes @ 0xE0001000)
T24D4 000:306.101 - 69.542ms
T24D4 000:306.131 JLINK_Halt()
T24D4 000:306.138 - 0.011ms returns 0x00
T24D4 000:306.148 JLINK_ReadMemU32(0xE000EDF0, 0x1 Items)
T24D4 000:306.160   CPU_ReadMem(4 bytes @ 0xE000EDF0)
T24D4 000:322.581   Data:  03 00 03 00
T24D4 000:322.601   Debug reg: DHCSR
T24D4 000:322.610 - 16.465ms returns 1 (0x1)
T24D4 000:322.649 JLINK_WriteU32_64(0xE000EDF0, 0xA05F0003)
T24D4 000:322.659   Debug reg: DHCSR
T24D4 000:322.872   CPU_WriteMem(4 bytes @ 0xE000EDF0)
T24D4 000:323.187 - 0.544ms returns 0 (0x00000000)
T24D4 000:323.214 JLINK_WriteU32_64(0xE000EDFC, 0x01000000)
T24D4 000:323.222   Debug reg: DEMCR
T24D4 000:323.236   CPU_WriteMem(4 bytes @ 0xE000EDFC)
T24D4 000:323.557 - 0.350ms returns 0 (0x00000000)
T24D4 000:331.499 JLINK_GetHWStatus(...)
T24D4 000:331.874 - 0.389ms returns 0
T24D4 000:339.098 JLINK_GetNumBPUnits(Type = 0xFFFFFF00)
T24D4 000:339.127 - 0.032ms returns 0x06
T24D4 000:339.135 JLINK_GetNumBPUnits(Type = 0xF0)
T24D4 000:339.142 - 0.010ms returns 0x2000
T24D4 000:339.150 JLINK_GetNumWPUnits()
T24D4 000:339.156 - 0.010ms returns 4
T24D4 000:344.785 JLINK_GetSpeed()
T24D4 000:344.810 - 0.028ms returns 6000
T24D4 000:348.519 JLINK_ReadMemU32(0xE000E004, 0x1 Items)
T24D4 000:348.556   CPU_ReadMem(4 bytes @ 0xE000E004)
T24D4 000:348.941   Data:  01 00 00 00
T24D4 000:348.965 - 0.449ms returns 1 (0x1)
T24D4 000:348.998 JLINK_ReadMemU32(0xE000E004, 0x1 Items)
T24D4 000:349.014   CPU_ReadMem(4 bytes @ 0xE000E004)
T24D4 000:349.321   Data:  01 00 00 00
T24D4 000:349.340 - 0.346ms returns 1 (0x1)
T24D4 000:349.369 JLINK_WriteMemEx(0xE0001000, 0x0000001C Bytes, Flags = 0x02000004)
T24D4 000:349.379   Data:  01 00 00 00 00 00 00 00 00 00 00 00 00 00 00 00 ...
T24D4 000:349.396   CPU_WriteMem(28 bytes @ 0xE0001000)
T24D4 000:349.868 - 0.509ms returns 0x1C
T24D4 000:349.907 JLINK_Halt()
T24D4 000:349.916 - 0.012ms returns 0x00
T24D4 000:349.923 JLINK_IsHalted()
T24D4 000:349.931 - 0.011ms returns TRUE
T24D4 000:351.955 JLINK_WriteMem(0x20000000, 0x218 Bytes, ...)
T24D4 000:351.971   Data:  00 BE 0A E0 0D 78 2D 06 68 40 08 24 40 00 00 D3 ...
T24D4 000:352.176   CPU_WriteMem(536 bytes @ 0x20000000)
T24D4 000:354.324 - 2.376ms returns 0x218
T24D4 000:354.368 JLINK_HasError()
T24D4 000:354.378 JLINK_WriteReg(R0, 0x08000000)
T24D4 000:354.391 - 0.016ms returns 0
T24D4 000:354.399 JLINK_WriteReg(R1, 0x00B71B00)
T24D4 000:354.406 - 0.010ms returns 0
T24D4 000:354.414 JLINK_WriteReg(R2, 0x00000001)
T24D4 000:354.421 - 0.010ms returns 0
T24D4 000:354.428 JLINK_WriteReg(R3, 0x00000000)
T24D4 000:354.436 - 0.010ms returns 0
T24D4 000:354.443 JLINK_WriteReg(R4, 0x00000000)
T24D4 000:354.450 - 0.010ms returns 0
T24D4 000:354.457 JLINK_WriteReg(R5, 0x00000000)
T24D4 000:354.464 - 0.010ms returns 0
T24D4 000:354.472 JLINK_WriteReg(R6, 0x00000000)
T24D4 000:354.479 - 0.010ms returns 0
T24D4 000:354.486 JLINK_WriteReg(R7, 0x00000000)
T24D4 000:354.493 - 0.010ms returns 0
T24D4 000:354.500 JLINK_WriteReg(R8, 0x00000000)
T24D4 000:354.516 - 0.019ms returns 0
T24D4 000:354.524 JLINK_WriteReg(R9, 0x20000214)
T24D4 000:354.531 - 0.010ms returns 0
T24D4 000:354.538 JLINK_WriteReg(R10, 0x00000000)
T24D4 000:354.545 - 0.010ms returns 0
T24D4 000:354.553 JLINK_WriteReg(R11, 0x00000000)
T24D4 000:354.560 - 0.010ms returns 0
T24D4 000:354.569 JLINK_WriteReg(R12, 0x00000000)
T24D4 000:354.578 - 0.012ms returns 0
T24D4 000:354.585 JLINK_WriteReg(R13 (SP), 0x20001000)
T24D4 000:354.593 - 0.011ms returns 0
T24D4 000:354.601 JLINK_WriteReg(R14, 0x20000001)
T24D4 000:354.607 - 0.009ms returns 0
T24D4 000:354.615 JLINK_WriteReg(R15 (PC), 0x20000020)
T24D4 000:354.626 - 0.014ms returns 0
T24D4 000:354.633 JLINK_WriteReg(XPSR, 0x01000000)
T24D4 000:354.641 - 0.010ms returns 0
T24D4 000:354.648 JLINK_WriteReg(MSP, 0x20001000)
T24D4 000:354.655 - 0.010ms returns 0
T24D4 000:354.662 JLINK_WriteReg(PSP, 0x20001000)
T24D4 000:354.669 - 0.010ms returns 0
T24D4 000:354.677 JLINK_WriteReg(CFBP, 0x00000000)
T24D4 000:354.684 - 0.010ms returns 0
T24D4 000:354.691 JLINK_SetBPEx(Addr = 0x20000000, Type = 0xFFFFFFF2)
T24D4 000:354.706   CPU_ReadMem(2 bytes @ 0x20000000)
T24D4 000:370.761 - 16.092ms returns 0x00000001
T24D4 000:370.817 JLINK_Go()
T24D4 000:370.832   CPU_WriteMem(2 bytes @ 0x20000000)
T24D4 000:371.177   CPU_ReadMem(4 bytes @ 0xE0001000)
T24D4 000:371.471   CPU_WriteMem(4 bytes @ 0xE0002008)
T24D4 000:371.485   CPU_WriteMem(4 bytes @ 0xE000200C)
T24D4 000:371.495   CPU_WriteMem(4 bytes @ 0xE0002010)
T24D4 000:371.505   CPU_WriteMem(4 bytes @ 0xE0002014)
T24D4 000:371.514   CPU_WriteMem(4 bytes @ 0xE0002018)
T24D4 000:371.524   CPU_WriteMem(4 bytes @ 0xE000201C)
T24D4 000:372.617   CPU_WriteMem(4 bytes @ 0xE0001004)
T24D4 000:374.838 - 4.035ms
T24D4 000:374.876 JLINK_IsHalted()
T24D4 000:376.959   CPU_ReadMem(2 bytes @ 0x20000000)
T24D4 000:377.245 - 2.376ms returns TRUE
T24D4 000:377.272 JLINK_ReadReg(R15 (PC))
T24D4 000:377.283 - 0.014ms returns 0x20000000
T24D4 000:377.292 JLINK_ClrBPEx(BPHandle = 0x00000001)
T24D4 000:377.299 - 0.011ms returns 0x00
T24D4 000:377.308 JLINK_ReadReg(R0)
T24D4 000:377.315 - 0.010ms returns 0x00000000
T24D4 000:377.568 JLINK_HasError()
T24D4 000:377.581 JLINK_WriteReg(R0, 0x08000000)
T24D4 000:377.589 - 0.011ms returns 0
T24D4 000:377.597 JLINK_WriteReg(R1, 0x00000100)
T24D4 000:377.604 - 0.010ms returns 0
T24D4 000:377.611 JLINK_WriteReg(R2, 0x00000000)
T24D4 000:377.618 - 0.010ms returns 0
T24D4 000:377.626 JLINK_WriteReg(R3, 0x00000000)
T24D4 000:377.633 - 0.010ms returns 0
T24D4 000:377.641 JLINK_WriteReg(R4, 0x00000000)
T24D4 000:377.648 - 0.010ms returns 0
T24D4 000:377.655 JLINK_WriteReg(R5, 0x00000000)
T24D4 000:377.662 - 0.010ms returns 0
T24D4 000:377.669 JLINK_WriteReg(R6, 0x00000000)
T24D4 000:377.676 - 0.010ms returns 0
T24D4 000:377.684 JLINK_WriteReg(R7, 0x00000000)
T24D4 000:377.691 - 0.009ms returns 0
T24D4 000:377.698 JLINK_WriteReg(R8, 0x00000000)
T24D4 000:377.705 - 0.010ms returns 0
T24D4 000:377.713 JLINK_WriteReg(R9, 0x20000214)
T24D4 000:377.720 - 0.010ms returns 0
T24D4 000:377.727 JLINK_WriteReg(R10, 0x00000000)
T24D4 000:377.734 - 0.010ms returns 0
T24D4 000:377.742 JLINK_WriteReg(R11, 0x00000000)
T24D4 000:377.749 - 0.010ms returns 0
T24D4 000:377.756 JLINK_WriteReg(R12, 0x00000000)
T24D4 000:377.763 - 0.010ms returns 0
T24D4 000:377.772 JLINK_WriteReg(R13 (SP), 0x20001000)
T24D4 000:377.780 - 0.011ms returns 0
T24D4 000:377.787 JLINK_WriteReg(R14, 0x20000001)
T24D4 000:377.794 - 0.010ms returns 0
T24D4 000:377.802 JLINK_WriteReg(R15 (PC), 0x200000FA)
T24D4 000:377.809 - 0.010ms returns 0
T24D4 000:377.816 JLINK_WriteReg(XPSR, 0x01000000)
T24D4 000:377.823 - 0.010ms returns 0
T24D4 000:377.830 JLINK_WriteReg(MSP, 0x20001000)
T24D4 000:377.838 - 0.010ms returns 0
T24D4 000:377.845 JLINK_WriteReg(PSP, 0x20001000)
T24D4 000:377.852 - 0.010ms returns 0
T24D4 000:377.859 JLINK_WriteReg(CFBP, 0x00000000)
T24D4 000:377.866 - 0.010ms returns 0
T24D4 000:377.874 JLINK_SetBPEx(Addr = 0x20000000, Type = 0xFFFFFFF2)
T24D4 000:377.882 - 0.011ms returns 0x00000002
T24D4 000:377.889 JLINK_Go()
T24D4 000:377.902   CPU_ReadMem(4 bytes @ 0xE0001000)
T24D4 000:380.204 - 2.322ms
T24D4 000:380.231 JLINK_IsHalted()
T24D4 000:382.287   CPU_ReadMem(2 bytes @ 0x20000000)
T24D4 000:382.523 - 2.298ms returns TRUE
T24D4 000:382.550 JLINK_ReadReg(R15 (PC))
T24D4 000:382.567 - 0.020ms returns 0x20000000
T24D4 000:382.575 JLINK_ClrBPEx(BPHandle = 0x00000002)
T24D4 000:382.582 - 0.011ms returns 0x00
T24D4 000:382.590 JLINK_ReadReg(R0)
T24D4 000:382.598 - 0.010ms returns 0x00000001
T24D4 000:382.605 JLINK_HasError()
T24D4 000:382.613 JLINK_WriteReg(R0, 0x08000000)
T24D4 000:382.621 - 0.011ms returns 0
T24D4 000:382.628 JLINK_WriteReg(R1, 0x00000100)
T24D4 000:382.635 - 0.010ms returns 0
T24D4 000:382.643 JLINK_WriteReg(R2, 0x00000000)
T24D4 000:382.650 - 0.010ms returns 0
T24D4 000:382.657 JLINK_WriteReg(R3, 0x00000000)
T24D4 000:382.664 - 0.010ms returns 0
T24D4 000:382.671 JLINK_WriteReg(R4, 0x00000000)
T24D4 000:382.679 - 0.010ms returns 0
T24D4 000:382.686 JLINK_WriteReg(R5, 0x00000000)
T24D4 000:382.693 - 0.010ms returns 0
T24D4 000:382.700 JLINK_WriteReg(R6, 0x00000000)
T24D4 000:382.707 - 0.010ms returns 0
T24D4 000:382.715 JLINK_WriteReg(R7, 0x00000000)
T24D4 000:382.722 - 0.010ms returns 0
T24D4 000:382.729 JLINK_WriteReg(R8, 0x00000000)
T24D4 000:382.736 - 0.010ms returns 0
T24D4 000:382.744 JLINK_WriteReg(R9, 0x20000214)
T24D4 000:382.751 - 0.010ms returns 0
T24D4 000:382.759 JLINK_WriteReg(R10, 0x00000000)
T24D4 000:382.766 - 0.010ms returns 0
T24D4 000:382.774 JLINK_WriteReg(R11, 0x00000000)
T24D4 000:382.781 - 0.010ms returns 0
T24D4 000:382.788 JLINK_WriteReg(R12, 0x00000000)
T24D4 000:382.795 - 0.010ms returns 0
T24D4 000:382.802 JLINK_WriteReg(R13 (SP), 0x20001000)
T24D4 000:382.810 - 0.010ms returns 0
T24D4 000:382.817 JLINK_WriteReg(R14, 0x20000001)
T24D4 000:382.824 - 0.010ms returns 0
T24D4 000:382.832 JLINK_WriteReg(R15 (PC), 0x200000A8)
T24D4 000:382.839 - 0.010ms returns 0
T24D4 000:382.846 JLINK_WriteReg(XPSR, 0x01000000)
T24D4 000:382.853 - 0.010ms returns 0
T24D4 000:382.861 JLINK_WriteReg(MSP, 0x20001000)
T24D4 000:382.868 - 0.010ms returns 0
T24D4 000:382.875 JLINK_WriteReg(PSP, 0x20001000)
T24D4 000:382.882 - 0.010ms returns 0
T24D4 000:382.889 JLINK_WriteReg(CFBP, 0x00000000)
T24D4 000:382.896 - 0.009ms returns 0
T24D4 000:382.903 JLINK_SetBPEx(Addr = 0x20000000, Type = 0xFFFFFFF2)
T24D4 000:382.911 - 0.011ms returns 0x00000003
T24D4 000:382.919 JLINK_Go()
T24D4 000:382.931   CPU_ReadMem(4 bytes @ 0xE0001000)
T24D4 000:385.126 - 2.214ms
T24D4 000:385.151 JLINK_IsHalted()
T24D4 000:385.369 - 0.223ms returns FALSE
T24D4 000:385.392 JLINK_HasError()
T24D4 000:395.756 JLINK_IsHalted()
T24D4 000:397.934   CPU_ReadMem(2 bytes @ 0x20000000)
T24D4 000:398.186 - 2.437ms returns TRUE
T24D4 000:398.214 JLINK_ReadReg(R15 (PC))
T24D4 000:398.225 - 0.015ms returns 0x20000000
T24D4 000:398.233 JLINK_ClrBPEx(BPHandle = 0x00000003)
T24D4 000:398.241 - 0.010ms returns 0x00
T24D4 000:398.248 JLINK_ReadReg(R0)
T24D4 000:398.256 - 0.010ms returns 0x00000000
T24D4 000:398.696 JLINK_HasError()
T24D4 000:398.709 JLINK_WriteReg(R0, 0x08000100)
T24D4 000:398.719 - 0.013ms returns 0
T24D4 000:398.727 JLINK_WriteReg(R1, 0x00000100)
T24D4 000:398.734 - 0.010ms returns 0
T24D4 000:398.742 JLINK_WriteReg(R2, 0x00000000)
T24D4 000:398.749 - 0.010ms returns 0
T24D4 000:398.756 JLINK_WriteReg(R3, 0x00000000)
T24D4 000:398.763 - 0.010ms returns 0
T24D4 000:398.770 JLINK_WriteReg(R4, 0x00000000)
T24D4 000:398.778 - 0.011ms returns 0
T24D4 000:398.785 JLINK_WriteReg(R5, 0x00000000)
T24D4 000:398.792 - 0.010ms returns 0
T24D4 000:398.800 JLINK_WriteReg(R6, 0x00000000)
T24D4 000:398.807 - 0.010ms returns 0
T24D4 000:398.814 JLINK_WriteReg(R7, 0x00000000)
T24D4 000:398.821 - 0.010ms returns 0
T24D4 000:398.828 JLINK_WriteReg(R8, 0x00000000)
T24D4 000:398.836 - 0.010ms returns 0
T24D4 000:398.843 JLINK_WriteReg(R9, 0x20000214)
T24D4 000:398.850 - 0.010ms returns 0
T24D4 000:398.857 JLINK_WriteReg(R10, 0x00000000)
T24D4 000:398.864 - 0.010ms returns 0
T24D4 000:398.872 JLINK_WriteReg(R11, 0x00000000)
T24D4 000:398.879 - 0.010ms returns 0
T24D4 000:398.886 JLINK_WriteReg(R12, 0x00000000)
T24D4 000:398.894 - 0.010ms returns 0
T24D4 000:398.901 JLINK_WriteReg(R13 (SP), 0x20001000)
T24D4 000:398.911 - 0.016ms returns 0
T24D4 000:398.921 JLINK_WriteReg(R14, 0x20000001)
T24D4 000:398.928 - 0.010ms returns 0
T24D4 000:398.936 JLINK_WriteReg(R15 (PC), 0x200000FA)
T24D4 000:398.943 - 0.010ms returns 0
T24D4 000:398.950 JLINK_WriteReg(XPSR, 0x01000000)
T24D4 000:398.957 - 0.010ms returns 0
T24D4 000:398.964 JLINK_WriteReg(MSP, 0x20001000)
T24D4 000:398.971 - 0.010ms returns 0
T24D4 000:398.979 JLINK_WriteReg(PSP, 0x20001000)
T24D4 000:398.986 - 0.010ms returns 0
T24D4 000:398.993 JLINK_WriteReg(CFBP, 0x00000000)
T24D4 000:399.000 - 0.010ms returns 0
T24D4 000:399.008 JLINK_SetBPEx(Addr = 0x20000000, Type = 0xFFFFFFF2)
T24D4 000:399.016 - 0.011ms returns 0x00000004
T24D4 000:399.023 JLINK_Go()
T24D4 000:399.036   CPU_ReadMem(4 bytes @ 0xE0001000)
T24D4 000:401.134 - 2.118ms
T24D4 000:401.161 JLINK_IsHalted()
T24D4 000:403.185   CPU_ReadMem(2 bytes @ 0x20000000)
T24D4 000:403.423 - 2.268ms returns TRUE
T24D4 000:403.449 JLINK_ReadReg(R15 (PC))
T24D4 000:403.459 - 0.014ms returns 0x20000000
T24D4 000:403.468 JLINK_ClrBPEx(BPHandle = 0x00000004)
T24D4 000:403.476 - 0.011ms returns 0x00
T24D4 000:403.484 JLINK_ReadReg(R0)
T24D4 000:403.491 - 0.010ms returns 0x00000001
T24D4 000:403.500 JLINK_HasError()
T24D4 000:403.509 JLINK_WriteReg(R0, 0x08000100)
T24D4 000:403.517 - 0.010ms returns 0
T24D4 000:403.525 JLINK_WriteReg(R1, 0x00000100)
T24D4 000:403.532 - 0.010ms returns 0
T24D4 000:403.540 JLINK_WriteReg(R2, 0x00000000)
T24D4 000:403.547 - 0.010ms returns 0
T24D4 000:403.555 JLINK_WriteReg(R3, 0x00000000)
T24D4 000:403.563 - 0.010ms returns 0
T24D4 000:403.570 JLINK_WriteReg(R4, 0x00000000)
T24D4 000:403.578 - 0.010ms returns 0
T24D4 000:403.586 JLINK_WriteReg(R5, 0x00000000)
T24D4 000:403.593 - 0.010ms returns 0
T24D4 000:403.601 JLINK_WriteReg(R6, 0x00000000)
T24D4 000:403.608 - 0.010ms returns 0
T24D4 000:403.616 JLINK_WriteReg(R7, 0x00000000)
T24D4 000:403.623 - 0.010ms returns 0
T24D4 000:403.632 JLINK_WriteReg(R8, 0x00000000)
T24D4 000:403.639 - 0.010ms returns 0
T24D4 000:403.647 JLINK_WriteReg(R9, 0x20000214)
T24D4 000:403.654 - 0.010ms returns 0
T24D4 000:403.662 JLINK_WriteReg(R10, 0x00000000)
T24D4 000:403.669 - 0.010ms returns 0
T24D4 000:403.677 JLINK_WriteReg(R11, 0x00000000)
T24D4 000:403.684 - 0.010ms returns 0
T24D4 000:403.692 JLINK_WriteReg(R12, 0x00000000)
T24D4 000:403.701 - 0.012ms returns 0
T24D4 000:403.710 JLINK_WriteReg(R13 (SP), 0x20001000)
T24D4 000:403.718 - 0.011ms returns 0
T24D4 000:403.726 JLINK_WriteReg(R14, 0x20000001)
T24D4 000:403.734 - 0.010ms returns 0
T24D4 000:403.742 JLINK_WriteReg(R15 (PC), 0x200000A8)
T24D4 000:403.749 - 0.010ms returns 0
T24D4 000:403.757 JLINK_WriteReg(XPSR, 0x01000000)
T24D4 000:403.764 - 0.010ms returns 0
T24D4 000:403.772 JLINK_WriteReg(MSP, 0x20001000)
T24D4 000:403.779 - 0.010ms returns 0
T24D4 000:403.787 JLINK_WriteReg(PSP, 0x20001000)
T24D4 000:403.795 - 0.010ms returns 0
T24D4 000:403.803 JLINK_WriteReg(CFBP, 0x00000000)
T24D4 000:403.810 - 0.010ms returns 0
T24D4 000:403.818 JLINK_SetBPEx(Addr = 0x20000000, Type = 0xFFFFFFF2)
T24D4 000:403.826 - 0.011ms returns 0x00000005
T24D4 000:403.834 JLINK_Go()
T24D4 000:403.846   CPU_ReadMem(4 bytes @ 0xE0001000)
T24D4 000:422.090 - 18.272ms
T24D4 000:422.128 JLINK_IsHalted()
T24D4 000:422.386 - 0.264ms returns FALSE
T24D4 000:422.410 JLINK_HasError()
T24D4 000:423.704 JLINK_IsHalted()
T24D4 000:423.991 - 0.294ms returns FALSE
T24D4 000:424.019 JLINK_HasError()
T24D4 000:425.669 JLINK_IsHalted()
T24D4 000:427.759   CPU_ReadMem(2 bytes @ 0x20000000)
T24D4 000:427.985 - 2.323ms returns TRUE
T24D4 000:428.012 JLINK_ReadReg(R15 (PC))
T24D4 000:428.022 - 0.013ms returns 0x20000000
T24D4 000:428.030 JLINK_ClrBPEx(BPHandle = 0x00000005)
T24D4 000:428.038 - 0.011ms returns 0x00
T24D4 000:428.046 JLINK_ReadReg(R0)
T24D4 000:428.053 - 0.011ms returns 0x00000000
T24D4 000:428.453 JLINK_HasError()
T24D4 000:428.466 JLINK_WriteReg(R0, 0x08000200)
T24D4 000:428.474 - 0.011ms returns 0
T24D4 000:428.482 JLINK_WriteReg(R1, 0x00000100)
T24D4 000:428.492 - 0.016ms returns 0
T24D4 000:428.502 JLINK_WriteReg(R2, 0x00000000)
T24D4 000:428.509 - 0.010ms returns 0
T24D4 000:428.517 JLINK_WriteReg(R3, 0x00000000)
T24D4 000:428.524 - 0.010ms returns 0
T24D4 000:428.531 JLINK_WriteReg(R4, 0x00000000)
T24D4 000:428.538 - 0.010ms returns 0
T24D4 000:428.545 JLINK_WriteReg(R5, 0x00000000)
T24D4 000:428.552 - 0.010ms returns 0
T24D4 000:428.560 JLINK_WriteReg(R6, 0x00000000)
T24D4 000:428.567 - 0.010ms returns 0
T24D4 000:428.574 JLINK_WriteReg(R7, 0x00000000)
T24D4 000:428.581 - 0.010ms returns 0
T24D4 000:428.589 JLINK_WriteReg(R8, 0x00000000)
T24D4 000:428.596 - 0.010ms returns 0
T24D4 000:428.603 JLINK_WriteReg(R9, 0x20000214)
T24D4 000:428.610 - 0.010ms returns 0
T24D4 000:428.617 JLINK_WriteReg(R10, 0x00000000)
T24D4 000:428.624 - 0.010ms returns 0
T24D4 000:428.632 JLINK_WriteReg(R11, 0x00000000)
T24D4 000:428.638 - 0.010ms returns 0
T24D4 000:428.646 JLINK_WriteReg(R12, 0x00000000)
T24D4 000:428.653 - 0.012ms returns 0
T24D4 000:428.662 JLINK_WriteReg(R13 (SP), 0x20001000)
T24D4 000:428.670 - 0.011ms returns 0
T24D4 000:428.677 JLINK_WriteReg(R14, 0x20000001)
T24D4 000:428.684 - 0.010ms returns 0
T24D4 000:428.691 JLINK_WriteReg(R15 (PC), 0x200000FA)
T24D4 000:428.698 - 0.010ms returns 0
T24D4 000:428.706 JLINK_WriteReg(XPSR, 0x01000000)
T24D4 000:428.713 - 0.010ms returns 0
T24D4 000:428.720 JLINK_WriteReg(MSP, 0x20001000)
T24D4 000:428.727 - 0.010ms returns 0
T24D4 000:428.734 JLINK_WriteReg(PSP, 0x20001000)
T24D4 000:428.741 - 0.010ms returns 0
T24D4 000:428.749 JLINK_WriteReg(CFBP, 0x00000000)
T24D4 000:428.755 - 0.010ms returns 0
T24D4 000:428.763 JLINK_SetBPEx(Addr = 0x20000000, Type = 0xFFFFFFF2)
T24D4 000:428.771 - 0.011ms returns 0x00000006
T24D4 000:428.778 JLINK_Go()
T24D4 000:428.791   CPU_ReadMem(4 bytes @ 0xE0001000)
T24D4 000:431.025 - 2.254ms
T24D4 000:431.053 JLINK_IsHalted()
T24D4 000:433.083   CPU_ReadMem(2 bytes @ 0x20000000)
T24D4 000:433.305 - 2.257ms returns TRUE
T24D4 000:433.330 JLINK_ReadReg(R15 (PC))
T24D4 000:433.339 - 0.012ms returns 0x20000000
T24D4 000:433.347 JLINK_ClrBPEx(BPHandle = 0x00000006)
T24D4 000:433.354 - 0.010ms returns 0x00
T24D4 000:433.361 JLINK_ReadReg(R0)
T24D4 000:433.368 - 0.010ms returns 0x00000001
T24D4 000:433.376 JLINK_HasError()
T24D4 000:433.383 JLINK_WriteReg(R0, 0x08000200)
T24D4 000:433.391 - 0.010ms returns 0
T24D4 000:433.398 JLINK_WriteReg(R1, 0x00000100)
T24D4 000:433.405 - 0.010ms returns 0
T24D4 000:433.412 JLINK_WriteReg(R2, 0x00000000)
T24D4 000:433.419 - 0.010ms returns 0
T24D4 000:433.427 JLINK_WriteReg(R3, 0x00000000)
T24D4 000:433.434 - 0.009ms returns 0
T24D4 000:433.441 JLINK_WriteReg(R4, 0x00000000)
T24D4 000:433.448 - 0.010ms returns 0
T24D4 000:433.455 JLINK_WriteReg(R5, 0x00000000)
T24D4 000:433.462 - 0.010ms returns 0
T24D4 000:433.470 JLINK_WriteReg(R6, 0x00000000)
T24D4 000:433.476 - 0.010ms returns 0
T24D4 000:433.484 JLINK_WriteReg(R7, 0x00000000)
T24D4 000:433.491 - 0.009ms returns 0
T24D4 000:433.498 JLINK_WriteReg(R8, 0x00000000)
T24D4 000:433.505 - 0.010ms returns 0
T24D4 000:433.512 JLINK_WriteReg(R9, 0x20000214)
T24D4 000:433.519 - 0.010ms returns 0
T24D4 000:433.526 JLINK_WriteReg(R10, 0x00000000)
T24D4 000:433.533 - 0.010ms returns 0
T24D4 000:433.541 JLINK_WriteReg(R11, 0x00000000)
T24D4 000:433.548 - 0.010ms returns 0
T24D4 000:433.555 JLINK_WriteReg(R12, 0x00000000)
T24D4 000:433.562 - 0.010ms returns 0
T24D4 000:433.569 JLINK_WriteReg(R13 (SP), 0x20001000)
T24D4 000:433.577 - 0.010ms returns 0
T24D4 000:433.584 JLINK_WriteReg(R14, 0x20000001)
T24D4 000:433.591 - 0.010ms returns 0
T24D4 000:433.599 JLINK_WriteReg(R15 (PC), 0x200000A8)
T24D4 000:433.605 - 0.010ms returns 0
T24D4 000:433.613 JLINK_WriteReg(XPSR, 0x01000000)
T24D4 000:433.620 - 0.010ms returns 0
T24D4 000:433.627 JLINK_WriteReg(MSP, 0x20001000)
T24D4 000:433.634 - 0.010ms returns 0
T24D4 000:433.645 JLINK_WriteReg(PSP, 0x20001000)
T24D4 000:433.653 - 0.011ms returns 0
T24D4 000:433.661 JLINK_WriteReg(CFBP, 0x00000000)
T24D4 000:433.671 - 0.013ms returns 0
T24D4 000:433.678 JLINK_SetBPEx(Addr = 0x20000000, Type = 0xFFFFFFF2)
T24D4 000:433.686 - 0.011ms returns 0x00000007
T24D4 000:433.693 JLINK_Go()
T24D4 000:433.705   CPU_ReadMem(4 bytes @ 0xE0001000)
T24D4 000:435.822 - 2.135ms
T24D4 000:435.847 JLINK_IsHalted()
T24D4 000:436.066 - 0.226ms returns FALSE
T24D4 000:436.096 JLINK_HasError()
T24D4 000:437.660 JLINK_IsHalted()
T24D4 000:437.951 - 0.297ms returns FALSE
T24D4 000:437.977 JLINK_HasError()
T24D4 000:439.659 JLINK_IsHalted()
T24D4 000:441.756   CPU_ReadMem(2 bytes @ 0x20000000)
T24D4 000:441.984 - 2.331ms returns TRUE
T24D4 000:442.010 JLINK_ReadReg(R15 (PC))
T24D4 000:442.022 - 0.014ms returns 0x20000000
T24D4 000:442.029 JLINK_ClrBPEx(BPHandle = 0x00000007)
T24D4 000:442.036 - 0.010ms returns 0x00
T24D4 000:442.044 JLINK_ReadReg(R0)
T24D4 000:442.051 - 0.010ms returns 0x00000000
T24D4 000:442.425 JLINK_HasError()
T24D4 000:442.437 JLINK_WriteReg(R0, 0x08000300)
T24D4 000:442.446 - 0.011ms returns 0
T24D4 000:442.453 JLINK_WriteReg(R1, 0x00000100)
T24D4 000:442.460 - 0.010ms returns 0
T24D4 000:442.468 JLINK_WriteReg(R2, 0x00000000)
T24D4 000:442.475 - 0.010ms returns 0
T24D4 000:442.482 JLINK_WriteReg(R3, 0x00000000)
T24D4 000:442.489 - 0.010ms returns 0
T24D4 000:442.496 JLINK_WriteReg(R4, 0x00000000)
T24D4 000:442.504 - 0.010ms returns 0
T24D4 000:442.511 JLINK_WriteReg(R5, 0x00000000)
T24D4 000:442.518 - 0.010ms returns 0
T24D4 000:442.525 JLINK_WriteReg(R6, 0x00000000)
T24D4 000:442.532 - 0.010ms returns 0
T24D4 000:442.540 JLINK_WriteReg(R7, 0x00000000)
T24D4 000:442.546 - 0.010ms returns 0
T24D4 000:442.554 JLINK_WriteReg(R8, 0x00000000)
T24D4 000:442.561 - 0.010ms returns 0
T24D4 000:442.568 JLINK_WriteReg(R9, 0x20000214)
T24D4 000:442.575 - 0.010ms returns 0
T24D4 000:442.583 JLINK_WriteReg(R10, 0x00000000)
T24D4 000:442.590 - 0.010ms returns 0
T24D4 000:442.597 JLINK_WriteReg(R11, 0x00000000)
T24D4 000:442.604 - 0.010ms returns 0
T24D4 000:442.611 JLINK_WriteReg(R12, 0x00000000)
T24D4 000:442.634 - 0.027ms returns 0
T24D4 000:442.645 JLINK_WriteReg(R13 (SP), 0x20001000)
T24D4 000:442.655 - 0.013ms returns 0
T24D4 000:442.663 JLINK_WriteReg(R14, 0x20000001)
T24D4 000:442.672 - 0.013ms returns 0
T24D4 000:442.680 JLINK_WriteReg(R15 (PC), 0x200000FA)
T24D4 000:442.687 - 0.010ms returns 0
T24D4 000:442.695 JLINK_WriteReg(XPSR, 0x01000000)
T24D4 000:442.702 - 0.010ms returns 0
T24D4 000:442.709 JLINK_WriteReg(MSP, 0x20001000)
T24D4 000:442.717 - 0.011ms returns 0
T24D4 000:442.724 JLINK_WriteReg(PSP, 0x20001000)
T24D4 000:442.731 - 0.010ms returns 0
T24D4 000:442.739 JLINK_WriteReg(CFBP, 0x00000000)
T24D4 000:442.746 - 0.010ms returns 0
T24D4 000:442.753 JLINK_SetBPEx(Addr = 0x20000000, Type = 0xFFFFFFF2)
T24D4 000:442.761 - 0.011ms returns 0x00000008
T24D4 000:442.769 JLINK_Go()
T24D4 000:442.783   CPU_ReadMem(4 bytes @ 0xE0001000)
T24D4 000:445.028 - 2.270ms
T24D4 000:445.061 JLINK_IsHalted()
T24D4 000:447.067   CPU_ReadMem(2 bytes @ 0x20000000)
T24D4 000:447.290 - 2.234ms returns TRUE
T24D4 000:447.315 JLINK_ReadReg(R15 (PC))
T24D4 000:447.325 - 0.013ms returns 0x20000000
T24D4 000:447.333 JLINK_ClrBPEx(BPHandle = 0x00000008)
T24D4 000:447.341 - 0.010ms returns 0x00
T24D4 000:447.348 JLINK_ReadReg(R0)
T24D4 000:447.355 - 0.010ms returns 0x00000001
T24D4 000:447.363 JLINK_HasError()
T24D4 000:447.371 JLINK_WriteReg(R0, 0x08000300)
T24D4 000:447.378 - 0.010ms returns 0
T24D4 000:447.385 JLINK_WriteReg(R1, 0x00000100)
T24D4 000:447.393 - 0.010ms returns 0
T24D4 000:447.400 JLINK_WriteReg(R2, 0x00000000)
T24D4 000:447.407 - 0.010ms returns 0
T24D4 000:447.414 JLINK_WriteReg(R3, 0x00000000)
T24D4 000:447.421 - 0.010ms returns 0
T24D4 000:447.429 JLINK_WriteReg(R4, 0x00000000)
T24D4 000:447.436 - 0.010ms returns 0
T24D4 000:447.443 JLINK_WriteReg(R5, 0x00000000)
T24D4 000:447.450 - 0.010ms returns 0
T24D4 000:447.457 JLINK_WriteReg(R6, 0x00000000)
T24D4 000:447.465 - 0.010ms returns 0
T24D4 000:447.472 JLINK_WriteReg(R7, 0x00000000)
T24D4 000:447.525 - 0.057ms returns 0
T24D4 000:447.534 JLINK_WriteReg(R8, 0x00000000)
T24D4 000:447.541 - 0.011ms returns 0
T24D4 000:447.548 JLINK_WriteReg(R9, 0x20000214)
T24D4 000:447.556 - 0.010ms returns 0
T24D4 000:447.563 JLINK_WriteReg(R10, 0x00000000)
T24D4 000:447.570 - 0.010ms returns 0
T24D4 000:447.577 JLINK_WriteReg(R11, 0x00000000)
T24D4 000:447.584 - 0.010ms returns 0
T24D4 000:447.592 JLINK_WriteReg(R12, 0x00000000)
T24D4 000:447.599 - 0.010ms returns 0
T24D4 000:447.611 JLINK_WriteReg(R13 (SP), 0x20001000)
T24D4 000:447.619 - 0.011ms returns 0
T24D4 000:447.628 JLINK_WriteReg(R14, 0x20000001)
T24D4 000:447.635 - 0.010ms returns 0
T24D4 000:447.643 JLINK_WriteReg(R15 (PC), 0x200000A8)
T24D4 000:447.651 - 0.010ms returns 0
T24D4 000:447.659 JLINK_WriteReg(XPSR, 0x01000000)
T24D4 000:447.666 - 0.010ms returns 0
T24D4 000:447.674 JLINK_WriteReg(MSP, 0x20001000)
T24D4 000:447.681 - 0.010ms returns 0
T24D4 000:447.690 JLINK_WriteReg(PSP, 0x20001000)
T24D4 000:447.696 - 0.010ms returns 0
T24D4 000:447.705 JLINK_WriteReg(CFBP, 0x00000000)
T24D4 000:447.712 - 0.009ms returns 0
T24D4 000:447.720 JLINK_SetBPEx(Addr = 0x20000000, Type = 0xFFFFFFF2)
T24D4 000:447.728 - 0.011ms returns 0x00000009
T24D4 000:447.736 JLINK_Go()
T24D4 000:447.749   CPU_ReadMem(4 bytes @ 0xE0001000)
T24D4 000:449.898 - 2.168ms
T24D4 000:449.925 JLINK_IsHalted()
T24D4 000:450.145 - 0.226ms returns FALSE
T24D4 000:450.170 JLINK_HasError()
T24D4 000:452.618 JLINK_IsHalted()
T24D4 000:470.977   CPU_ReadMem(2 bytes @ 0x20000000)
T24D4 000:471.276 - 18.666ms returns TRUE
T24D4 000:471.304 JLINK_ReadReg(R15 (PC))
T24D4 000:471.315 - 0.014ms returns 0x20000000
T24D4 000:471.323 JLINK_ClrBPEx(BPHandle = 0x00000009)
T24D4 000:471.331 - 0.010ms returns 0x00
T24D4 000:471.338 JLINK_ReadReg(R0)
T24D4 000:471.346 - 0.011ms returns 0x00000000
T24D4 000:471.712 JLINK_HasError()
T24D4 000:471.725 JLINK_WriteReg(R0, 0x08000400)
T24D4 000:471.733 - 0.011ms returns 0
T24D4 000:471.741 JLINK_WriteReg(R1, 0x00000100)
T24D4 000:471.748 - 0.010ms returns 0
T24D4 000:471.755 JLINK_WriteReg(R2, 0x00000000)
T24D4 000:471.763 - 0.010ms returns 0
T24D4 000:471.770 JLINK_WriteReg(R3, 0x00000000)
T24D4 000:471.777 - 0.010ms returns 0
T24D4 000:471.784 JLINK_WriteReg(R4, 0x00000000)
T24D4 000:471.791 - 0.010ms returns 0
T24D4 000:471.798 JLINK_WriteReg(R5, 0x00000000)
T24D4 000:471.806 - 0.010ms returns 0
T24D4 000:471.813 JLINK_WriteReg(R6, 0x00000000)
T24D4 000:471.820 - 0.010ms returns 0
T24D4 000:471.827 JLINK_WriteReg(R7, 0x00000000)
T24D4 000:471.834 - 0.010ms returns 0
T24D4 000:471.842 JLINK_WriteReg(R8, 0x00000000)
T24D4 000:471.849 - 0.010ms returns 0
T24D4 000:471.856 JLINK_WriteReg(R9, 0x20000214)
T24D4 000:471.863 - 0.010ms returns 0
T24D4 000:471.871 JLINK_WriteReg(R10, 0x00000000)
T24D4 000:471.878 - 0.010ms returns 0
T24D4 000:471.885 JLINK_WriteReg(R11, 0x00000000)
T24D4 000:471.892 - 0.010ms returns 0
T24D4 000:471.899 JLINK_WriteReg(R12, 0x00000000)
T24D4 000:471.907 - 0.010ms returns 0
T24D4 000:471.914 JLINK_WriteReg(R13 (SP), 0x20001000)
T24D4 000:471.921 - 0.011ms returns 0
T24D4 000:471.929 JLINK_WriteReg(R14, 0x20000001)
T24D4 000:471.936 - 0.010ms returns 0
T24D4 000:471.943 JLINK_WriteReg(R15 (PC), 0x200000FA)
T24D4 000:471.950 - 0.010ms returns 0
T24D4 000:471.958 JLINK_WriteReg(XPSR, 0x01000000)
T24D4 000:471.965 - 0.010ms returns 0
T24D4 000:471.972 JLINK_WriteReg(MSP, 0x20001000)
T24D4 000:471.979 - 0.010ms returns 0
T24D4 000:471.986 JLINK_WriteReg(PSP, 0x20001000)
T24D4 000:471.993 - 0.010ms returns 0
T24D4 000:472.000 JLINK_WriteReg(CFBP, 0x00000000)
T24D4 000:472.007 - 0.010ms returns 0
T24D4 000:472.015 JLINK_SetBPEx(Addr = 0x20000000, Type = 0xFFFFFFF2)
T24D4 000:472.023 - 0.011ms returns 0x0000000A
T24D4 000:472.030 JLINK_Go()
T24D4 000:472.044   CPU_ReadMem(4 bytes @ 0xE0001000)
T24D4 000:474.315 - 2.298ms
T24D4 000:474.356 JLINK_IsHalted()
T24D4 000:476.408   CPU_ReadMem(2 bytes @ 0x20000000)
T24D4 000:476.637 - 2.331ms returns TRUE
T24D4 000:476.714 JLINK_ReadReg(R15 (PC))
T24D4 000:476.725 - 0.014ms returns 0x20000000
T24D4 000:476.733 JLINK_ClrBPEx(BPHandle = 0x0000000A)
T24D4 000:476.741 - 0.011ms returns 0x00
T24D4 000:476.750 JLINK_ReadReg(R0)
T24D4 000:476.757 - 0.010ms returns 0x00000001
T24D4 000:476.766 JLINK_HasError()
T24D4 000:476.775 JLINK_WriteReg(R0, 0x08000400)
T24D4 000:476.782 - 0.011ms returns 0
T24D4 000:476.791 JLINK_WriteReg(R1, 0x00000100)
T24D4 000:476.798 - 0.010ms returns 0
T24D4 000:476.806 JLINK_WriteReg(R2, 0x00000000)
T24D4 000:476.813 - 0.010ms returns 0
T24D4 000:476.822 JLINK_WriteReg(R3, 0x00000000)
T24D4 000:476.829 - 0.010ms returns 0
T24D4 000:476.837 JLINK_WriteReg(R4, 0x00000000)
T24D4 000:476.844 - 0.010ms returns 0
T24D4 000:476.853 JLINK_WriteReg(R5, 0x00000000)
T24D4 000:476.859 - 0.010ms returns 0
T24D4 000:476.868 JLINK_WriteReg(R6, 0x00000000)
T24D4 000:476.875 - 0.010ms returns 0
T24D4 000:476.883 JLINK_WriteReg(R7, 0x00000000)
T24D4 000:476.891 - 0.010ms returns 0
T24D4 000:476.899 JLINK_WriteReg(R8, 0x00000000)
T24D4 000:476.906 - 0.010ms returns 0
T24D4 000:476.914 JLINK_WriteReg(R9, 0x20000214)
T24D4 000:476.921 - 0.010ms returns 0
T24D4 000:476.929 JLINK_WriteReg(R10, 0x00000000)
T24D4 000:476.937 - 0.010ms returns 0
T24D4 000:476.945 JLINK_WriteReg(R11, 0x00000000)
T24D4 000:476.952 - 0.010ms returns 0
T24D4 000:476.961 JLINK_WriteReg(R12, 0x00000000)
T24D4 000:476.967 - 0.010ms returns 0
T24D4 000:476.976 JLINK_WriteReg(R13 (SP), 0x20001000)
T24D4 000:476.983 - 0.010ms returns 0
T24D4 000:476.992 JLINK_WriteReg(R14, 0x20000001)
T24D4 000:476.999 - 0.010ms returns 0
T24D4 000:477.007 JLINK_WriteReg(R15 (PC), 0x200000A8)
T24D4 000:477.014 - 0.010ms returns 0
T24D4 000:477.023 JLINK_WriteReg(XPSR, 0x01000000)
T24D4 000:477.030 - 0.010ms returns 0
T24D4 000:477.038 JLINK_WriteReg(MSP, 0x20001000)
T24D4 000:477.045 - 0.010ms returns 0
T24D4 000:477.053 JLINK_WriteReg(PSP, 0x20001000)
T24D4 000:477.061 - 0.010ms returns 0
T24D4 000:477.069 JLINK_WriteReg(CFBP, 0x00000000)
T24D4 000:477.076 - 0.010ms returns 0
T24D4 000:477.084 JLINK_SetBPEx(Addr = 0x20000000, Type = 0xFFFFFFF2)
T24D4 000:477.092 - 0.011ms returns 0x0000000B
T24D4 000:477.100 JLINK_Go()
T24D4 000:477.113   CPU_ReadMem(4 bytes @ 0xE0001000)
T24D4 000:479.188 - 2.095ms
T24D4 000:479.216 JLINK_IsHalted()
T24D4 000:479.435 - 0.224ms returns FALSE
T24D4 000:479.461 JLINK_HasError()
T24D4 000:481.519 JLINK_IsHalted()
T24D4 000:481.799 - 0.286ms returns FALSE
T24D4 000:481.824 JLINK_HasError()
T24D4 000:483.527 JLINK_IsHalted()
T24D4 000:485.517   CPU_ReadMem(2 bytes @ 0x20000000)
T24D4 000:485.799 - 2.277ms returns TRUE
T24D4 000:485.822 JLINK_ReadReg(R15 (PC))
T24D4 000:485.832 - 0.013ms returns 0x20000000
T24D4 000:485.840 JLINK_ClrBPEx(BPHandle = 0x0000000B)
T24D4 000:485.848 - 0.010ms returns 0x00
T24D4 000:485.855 JLINK_ReadReg(R0)
T24D4 000:485.862 - 0.010ms returns 0x00000000
T24D4 000:486.233 JLINK_HasError()
T24D4 000:486.250 JLINK_WriteReg(R0, 0x08000500)
T24D4 000:486.259 - 0.013ms returns 0
T24D4 000:486.267 JLINK_WriteReg(R1, 0x00000100)
T24D4 000:486.275 - 0.011ms returns 0
T24D4 000:486.282 JLINK_WriteReg(R2, 0x00000000)
T24D4 000:486.289 - 0.010ms returns 0
T24D4 000:486.297 JLINK_WriteReg(R3, 0x00000000)
T24D4 000:486.304 - 0.010ms returns 0
T24D4 000:486.311 JLINK_WriteReg(R4, 0x00000000)
T24D4 000:486.318 - 0.010ms returns 0
T24D4 000:486.325 JLINK_WriteReg(R5, 0x00000000)
T24D4 000:486.332 - 0.010ms returns 0
T24D4 000:486.339 JLINK_WriteReg(R6, 0x00000000)
T24D4 000:486.346 - 0.010ms returns 0
T24D4 000:486.354 JLINK_WriteReg(R7, 0x00000000)
T24D4 000:486.361 - 0.010ms returns 0
T24D4 000:486.368 JLINK_WriteReg(R8, 0x00000000)
T24D4 000:486.375 - 0.010ms returns 0
T24D4 000:486.382 JLINK_WriteReg(R9, 0x20000214)
T24D4 000:486.390 - 0.010ms returns 0
T24D4 000:486.397 JLINK_WriteReg(R10, 0x00000000)
T24D4 000:486.404 - 0.010ms returns 0
T24D4 000:486.411 JLINK_WriteReg(R11, 0x00000000)
T24D4 000:486.418 - 0.010ms returns 0
T24D4 000:486.429 JLINK_WriteReg(R12, 0x00000000)
T24D4 000:486.438 - 0.013ms returns 0
T24D4 000:486.446 JLINK_WriteReg(R13 (SP), 0x20001000)
T24D4 000:486.453 - 0.010ms returns 0
T24D4 000:486.460 JLINK_WriteReg(R14, 0x20000001)
T24D4 000:486.468 - 0.010ms returns 0
T24D4 000:486.475 JLINK_WriteReg(R15 (PC), 0x200000FA)
T24D4 000:486.482 - 0.010ms returns 0
T24D4 000:486.489 JLINK_WriteReg(XPSR, 0x01000000)
T24D4 000:486.497 - 0.010ms returns 0
T24D4 000:486.505 JLINK_WriteReg(MSP, 0x20001000)
T24D4 000:486.513 - 0.010ms returns 0
T24D4 000:486.520 JLINK_WriteReg(PSP, 0x20001000)
T24D4 000:486.527 - 0.010ms returns 0
T24D4 000:486.534 JLINK_WriteReg(CFBP, 0x00000000)
T24D4 000:486.541 - 0.010ms returns 0
T24D4 000:486.549 JLINK_SetBPEx(Addr = 0x20000000, Type = 0xFFFFFFF2)
T24D4 000:486.557 - 0.011ms returns 0x0000000C
T24D4 000:486.564 JLINK_Go()
T24D4 000:486.578   CPU_ReadMem(4 bytes @ 0xE0001000)
T24D4 000:488.849 - 2.292ms
T24D4 000:488.875 JLINK_IsHalted()
T24D4 000:490.954   CPU_ReadMem(2 bytes @ 0x20000000)
T24D4 000:491.228 - 2.367ms returns TRUE
T24D4 000:491.267 JLINK_ReadReg(R15 (PC))
T24D4 000:491.279 - 0.015ms returns 0x20000000
T24D4 000:491.287 JLINK_ClrBPEx(BPHandle = 0x0000000C)
T24D4 000:491.295 - 0.011ms returns 0x00
T24D4 000:491.303 JLINK_ReadReg(R0)
T24D4 000:491.310 - 0.011ms returns 0x00000001
T24D4 000:491.319 JLINK_HasError()
T24D4 000:491.327 JLINK_WriteReg(R0, 0x08000500)
T24D4 000:491.335 - 0.011ms returns 0
T24D4 000:491.343 JLINK_WriteReg(R1, 0x00000100)
T24D4 000:491.350 - 0.010ms returns 0
T24D4 000:491.358 JLINK_WriteReg(R2, 0x00000000)
T24D4 000:491.365 - 0.010ms returns 0
T24D4 000:491.372 JLINK_WriteReg(R3, 0x00000000)
T24D4 000:491.379 - 0.010ms returns 0
T24D4 000:491.387 JLINK_WriteReg(R4, 0x00000000)
T24D4 000:491.394 - 0.010ms returns 0
T24D4 000:491.401 JLINK_WriteReg(R5, 0x00000000)
T24D4 000:491.408 - 0.010ms returns 0
T24D4 000:491.416 JLINK_WriteReg(R6, 0x00000000)
T24D4 000:491.423 - 0.010ms returns 0
T24D4 000:491.430 JLINK_WriteReg(R7, 0x00000000)
T24D4 000:491.437 - 0.010ms returns 0
T24D4 000:491.444 JLINK_WriteReg(R8, 0x00000000)
T24D4 000:491.452 - 0.010ms returns 0
T24D4 000:491.459 JLINK_WriteReg(R9, 0x20000214)
T24D4 000:491.466 - 0.010ms returns 0
T24D4 000:491.474 JLINK_WriteReg(R10, 0x00000000)
T24D4 000:491.480 - 0.010ms returns 0
T24D4 000:491.488 JLINK_WriteReg(R11, 0x00000000)
T24D4 000:491.497 - 0.012ms returns 0
T24D4 000:491.505 JLINK_WriteReg(R12, 0x00000000)
T24D4 000:491.512 - 0.010ms returns 0
T24D4 000:491.519 JLINK_WriteReg(R13 (SP), 0x20001000)
T24D4 000:491.527 - 0.011ms returns 0
T24D4 000:491.534 JLINK_WriteReg(R14, 0x20000001)
T24D4 000:491.540 - 0.010ms returns 0
T24D4 000:491.548 JLINK_WriteReg(R15 (PC), 0x200000A8)
T24D4 000:491.555 - 0.010ms returns 0
T24D4 000:491.563 JLINK_WriteReg(XPSR, 0x01000000)
T24D4 000:491.570 - 0.010ms returns 0
T24D4 000:491.577 JLINK_WriteReg(MSP, 0x20001000)
T24D4 000:491.585 - 0.010ms returns 0
T24D4 000:491.592 JLINK_WriteReg(PSP, 0x20001000)
T24D4 000:491.598 - 0.010ms returns 0
T24D4 000:491.606 JLINK_WriteReg(CFBP, 0x00000000)
T24D4 000:491.613 - 0.010ms returns 0
T24D4 000:491.621 JLINK_SetBPEx(Addr = 0x20000000, Type = 0xFFFFFFF2)
T24D4 000:491.629 - 0.011ms returns 0x0000000D
T24D4 000:491.637 JLINK_Go()
T24D4 000:491.652   CPU_ReadMem(4 bytes @ 0xE0001000)
T24D4 000:493.916 - 2.294ms
T24D4 000:493.954 JLINK_IsHalted()
T24D4 000:494.176 - 0.228ms returns FALSE
T24D4 000:494.200 JLINK_HasError()
T24D4 000:497.498 JLINK_IsHalted()
T24D4 000:499.592   CPU_ReadMem(2 bytes @ 0x20000000)
T24D4 000:499.825 - 2.334ms returns TRUE
T24D4 000:499.851 JLINK_ReadReg(R15 (PC))
T24D4 000:499.862 - 0.013ms returns 0x20000000
T24D4 000:499.869 JLINK_ClrBPEx(BPHandle = 0x0000000D)
T24D4 000:499.877 - 0.010ms returns 0x00
T24D4 000:499.884 JLINK_ReadReg(R0)
T24D4 000:499.891 - 0.009ms returns 0x00000000
T24D4 000:500.232 JLINK_HasError()
T24D4 000:500.245 JLINK_WriteReg(R0, 0x08000600)
T24D4 000:500.253 - 0.012ms returns 0
T24D4 000:500.264 JLINK_WriteReg(R1, 0x00000100)
T24D4 000:500.273 - 0.012ms returns 0
T24D4 000:500.281 JLINK_WriteReg(R2, 0x00000000)
T24D4 000:500.288 - 0.010ms returns 0
T24D4 000:500.296 JLINK_WriteReg(R3, 0x00000000)
T24D4 000:500.305 - 0.015ms returns 0
T24D4 000:500.315 JLINK_WriteReg(R4, 0x00000000)
T24D4 000:500.322 - 0.010ms returns 0
T24D4 000:500.329 JLINK_WriteReg(R5, 0x00000000)
T24D4 000:500.336 - 0.010ms returns 0
T24D4 000:500.344 JLINK_WriteReg(R6, 0x00000000)
T24D4 000:500.351 - 0.010ms returns 0
T24D4 000:500.358 JLINK_WriteReg(R7, 0x00000000)
T24D4 000:500.365 - 0.010ms returns 0
T24D4 000:500.372 JLINK_WriteReg(R8, 0x00000000)
T24D4 000:500.379 - 0.009ms returns 0
T24D4 000:500.387 JLINK_WriteReg(R9, 0x20000214)
T24D4 000:500.394 - 0.010ms returns 0
T24D4 000:500.401 JLINK_WriteReg(R10, 0x00000000)
T24D4 000:500.408 - 0.010ms returns 0
T24D4 000:500.416 JLINK_WriteReg(R11, 0x00000000)
T24D4 000:500.423 - 0.010ms returns 0
T24D4 000:500.430 JLINK_WriteReg(R12, 0x00000000)
T24D4 000:500.437 - 0.010ms returns 0
T24D4 000:500.444 JLINK_WriteReg(R13 (SP), 0x20001000)
T24D4 000:500.452 - 0.010ms returns 0
T24D4 000:500.459 JLINK_WriteReg(R14, 0x20000001)
T24D4 000:500.471 - 0.014ms returns 0
T24D4 000:500.478 JLINK_WriteReg(R15 (PC), 0x200000FA)
T24D4 000:500.486 - 0.010ms returns 0
T24D4 000:500.493 JLINK_WriteReg(XPSR, 0x01000000)
T24D4 000:500.499 - 0.010ms returns 0
T24D4 000:500.507 JLINK_WriteReg(MSP, 0x20001000)
T24D4 000:500.514 - 0.010ms returns 0
T24D4 000:500.522 JLINK_WriteReg(PSP, 0x20001000)
T24D4 000:500.529 - 0.010ms returns 0
T24D4 000:500.536 JLINK_WriteReg(CFBP, 0x00000000)
T24D4 000:500.543 - 0.010ms returns 0
T24D4 000:500.551 JLINK_SetBPEx(Addr = 0x20000000, Type = 0xFFFFFFF2)
T24D4 000:500.558 - 0.011ms returns 0x0000000E
T24D4 000:500.566 JLINK_Go()
T24D4 000:500.578   CPU_ReadMem(4 bytes @ 0xE0001000)
T24D4 000:502.721 - 2.162ms
T24D4 000:502.747 JLINK_IsHalted()
T24D4 000:521.126   CPU_ReadMem(2 bytes @ 0x20000000)
T24D4 000:521.446 - 18.713ms returns TRUE
T24D4 000:521.538 JLINK_ReadReg(R15 (PC))
T24D4 000:521.566 - 0.031ms returns 0x20000000
T24D4 000:521.588 JLINK_ClrBPEx(BPHandle = 0x0000000E)
T24D4 000:521.612 - 0.027ms returns 0x00
T24D4 000:521.634 JLINK_ReadReg(R0)
T24D4 000:521.657 - 0.026ms returns 0x00000001
T24D4 000:521.666 JLINK_HasError()
T24D4 000:521.688 JLINK_WriteReg(R0, 0x08000600)
T24D4 000:521.712 - 0.041ms returns 0
T24D4 000:521.734 JLINK_WriteReg(R1, 0x00000100)
T24D4 000:521.758 - 0.026ms returns 0
T24D4 000:521.765 JLINK_WriteReg(R2, 0x00000000)
T24D4 000:521.773 - 0.010ms returns 0
T24D4 000:521.781 JLINK_WriteReg(R3, 0x00000000)
T24D4 000:521.788 - 0.010ms returns 0
T24D4 000:521.796 JLINK_WriteReg(R4, 0x00000000)
T24D4 000:521.817 - 0.023ms returns 0
T24D4 000:521.841 JLINK_WriteReg(R5, 0x00000000)
T24D4 000:521.848 - 0.010ms returns 0
T24D4 000:521.856 JLINK_WriteReg(R6, 0x00000000)
T24D4 000:521.878 - 0.042ms returns 0
T24D4 000:521.904 JLINK_WriteReg(R7, 0x00000000)
T24D4 000:521.926 - 0.025ms returns 0
T24D4 000:521.933 JLINK_WriteReg(R8, 0x00000000)
T24D4 000:521.940 - 0.010ms returns 0
T24D4 000:521.947 JLINK_WriteReg(R9, 0x20000214)
T24D4 000:521.954 - 0.010ms returns 0
T24D4 000:521.977 JLINK_WriteReg(R10, 0x00000000)
T24D4 000:521.985 - 0.010ms returns 0
T24D4 000:521.992 JLINK_WriteReg(R11, 0x00000000)
T24D4 000:522.013 - 0.039ms returns 0
T24D4 000:522.036 JLINK_WriteReg(R12, 0x00000000)
T24D4 000:522.056 - 0.023ms returns 0
T24D4 000:522.079 JLINK_WriteReg(R13 (SP), 0x20001000)
T24D4 000:522.087 - 0.011ms returns 0
T24D4 000:522.094 JLINK_WriteReg(R14, 0x20000001)
T24D4 000:522.116 - 0.024ms returns 0
T24D4 000:522.138 JLINK_WriteReg(R15 (PC), 0x200000A8)
T24D4 000:522.159 - 0.023ms returns 0
T24D4 000:522.166 JLINK_WriteReg(XPSR, 0x01000000)
T24D4 000:522.189 - 0.026ms returns 0
T24D4 000:522.197 JLINK_WriteReg(MSP, 0x20001000)
T24D4 000:522.218 - 0.024ms returns 0
T24D4 000:522.240 JLINK_WriteReg(PSP, 0x20001000)
T24D4 000:522.261 - 0.024ms returns 0
T24D4 000:522.288 JLINK_WriteReg(CFBP, 0x00000000)
T24D4 000:522.311 - 0.026ms returns 0
T24D4 000:522.334 JLINK_SetBPEx(Addr = 0x20000000, Type = 0xFFFFFFF2)
T24D4 000:522.342 - 0.011ms returns 0x0000000F
T24D4 000:522.350 JLINK_Go()
T24D4 000:522.393   CPU_ReadMem(4 bytes @ 0xE0001000)
T24D4 000:524.697 - 2.362ms
T24D4 000:524.732 JLINK_IsHalted()
T24D4 000:524.970 - 0.247ms returns FALSE
T24D4 000:525.000 JLINK_HasError()
T24D4 000:529.419 JLINK_IsHalted()
T24D4 000:531.545   CPU_ReadMem(2 bytes @ 0x20000000)
T24D4 000:531.800 - 2.388ms returns TRUE
T24D4 000:531.826 JLINK_ReadReg(R15 (PC))
T24D4 000:531.836 - 0.014ms returns 0x20000000
T24D4 000:531.844 JLINK_ClrBPEx(BPHandle = 0x0000000F)
T24D4 000:531.851 - 0.010ms returns 0x00
T24D4 000:531.859 JLINK_ReadReg(R0)
T24D4 000:531.866 - 0.010ms returns 0x00000000
T24D4 000:532.227 JLINK_HasError()
T24D4 000:532.240 JLINK_WriteReg(R0, 0x08000700)
T24D4 000:532.249 - 0.011ms returns 0
T24D4 000:532.256 JLINK_WriteReg(R1, 0x00000100)
T24D4 000:532.264 - 0.011ms returns 0
T24D4 000:532.271 JLINK_WriteReg(R2, 0x00000000)
T24D4 000:532.278 - 0.010ms returns 0
T24D4 000:532.286 JLINK_WriteReg(R3, 0x00000000)
T24D4 000:532.293 - 0.010ms returns 0
T24D4 000:532.300 JLINK_WriteReg(R4, 0x00000000)
T24D4 000:532.307 - 0.010ms returns 0
T24D4 000:532.315 JLINK_WriteReg(R5, 0x00000000)
T24D4 000:532.322 - 0.010ms returns 0
T24D4 000:532.329 JLINK_WriteReg(R6, 0x00000000)
T24D4 000:532.336 - 0.010ms returns 0
T24D4 000:532.344 JLINK_WriteReg(R7, 0x00000000)
T24D4 000:532.350 - 0.010ms returns 0
T24D4 000:532.358 JLINK_WriteReg(R8, 0x00000000)
T24D4 000:532.365 - 0.010ms returns 0
T24D4 000:532.372 JLINK_WriteReg(R9, 0x20000214)
T24D4 000:532.379 - 0.010ms returns 0
T24D4 000:532.387 JLINK_WriteReg(R10, 0x00000000)
T24D4 000:532.394 - 0.010ms returns 0
T24D4 000:532.401 JLINK_WriteReg(R11, 0x00000000)
